T293C 000:006.635   SEGGER J-Link V7.82 Log File
T293C 000:006.730   DLL Compiled: Oct 13 2022 13:32:51
T293C 000:006.733   Logging started @ 2025-11-29 12:48
T293C 000:006.737 - 6.738ms
T293C 000:006.743 JLINK_SetWarnOutHandler(...)
T293C 000:006.747 - 0.006ms
T293C 000:006.751 JLINK_OpenEx(...)
T293C 000:008.124   Firmware: J-Link V9 compiled May  7 2021 16:26:12
T293C 000:008.403   Firmware: J-Link V9 compiled May  7 2021 16:26:12
T293C 000:008.511   Decompressing FW timestamp took 94 us
T293C 000:016.238   Hardware: V9.40
T293C 000:016.256   S/N: 69407368
T293C 000:016.260   OEM: SEGGER
T293C 000:016.265   Feature(s): RDI, GDB, FlashDL, FlashBP, JFlash
T293C 000:017.298   TELNET listener socket opened on port 19021
T293C 000:017.370   WEBSRV WEBSRV_Init(): Starting webserver thread(s)
T293C 000:017.509   WEBSRV Webserver running on local port 19080
T293C 000:021.233 - 14.495ms returns "O.K."
T293C 000:021.266 JLINK_GetEmuCaps()
T293C 000:021.271 - 0.006ms returns 0xB9FF7BBF
T293C 000:021.277 JLINK_TIF_GetAvailable(...)
T293C 000:021.522 - 0.254ms
T293C 000:021.540 JLINK_SetErrorOutHandler(...)
T293C 000:021.545 - 0.006ms
T293C 000:021.561 JLINK_ExecCommand("ProjectFile = "D:\BOLL\fly\MDK-ARM\JLinkSettings.ini"", ...). 
T293C 000:029.471   Ref file found at: D:\keil\ARM\Segger\JLinkDevices.ref
T293C 000:029.527   REF file references invalid XML file: D:\jlink\JLinkDevices.xml
T293C 000:029.596 - 8.037ms returns 0x00
T293C 000:029.627 JLINK_ExecCommand("Device = STM32F407VGTx", ...). 
T293C 000:030.035   Device "STM32F407VG" selected.
T293C 000:030.222 - 0.593ms returns 0x00
T293C 000:030.231 JLINK_ExecCommand("DisableConnectionTimeout", ...). 
T293C 000:030.236 - 0.002ms returns 0x01
T293C 000:030.241 JLINK_GetHardwareVersion()
T293C 000:030.244 - 0.005ms returns 94000
T293C 000:030.251 JLINK_GetDLLVersion()
T293C 000:030.254 - 0.004ms returns 78200
T293C 000:030.258 JLINK_GetOEMString(...)
T293C 000:030.262 JLINK_GetFirmwareString(...)
T293C 000:030.266 - 0.005ms
T293C 000:030.281 JLINK_GetDLLVersion()
T293C 000:030.285 - 0.004ms returns 78200
T293C 000:030.289 JLINK_GetCompileDateTime()
T293C 000:030.292 - 0.005ms
T293C 000:030.300 JLINK_GetFirmwareString(...)
T293C 000:030.303 - 0.004ms
T293C 000:030.309 JLINK_GetHardwareVersion()
T293C 000:030.312 - 0.004ms returns 94000
T293C 000:030.319 JLINK_GetSN()
T293C 000:030.322 - 0.005ms returns 69407368
T293C 000:030.328 JLINK_GetOEMString(...)
T293C 000:030.337 JLINK_TIF_Select(JLINKARM_TIF_SWD)
T293C 000:030.913 - 0.585ms returns 0x00
T293C 000:030.927 JLINK_HasError()
T293C 000:030.938 JLINK_SetSpeed(5000)
T293C 000:031.053 - 0.118ms
T293C 000:031.060 JLINK_GetId()
T293C 000:031.256   InitTarget() start
T293C 000:031.264    J-Link Script File: Executing InitTarget()
T293C 000:036.909   InitTarget() end
T293C 000:037.374   Found SW-DP with ID 0x2BA01477
T293C 000:039.313   DPIDR: 0x2BA01477
T293C 000:039.322   CoreSight SoC-400 or earlier
T293C 000:039.330   Scanning AP map to find all available APs
T293C 000:039.831   AP[1]: Stopped AP scan as end of AP map has been reached
T293C 000:039.841   AP[0]: AHB-AP (IDR: 0x24770011)
T293C 000:039.848   Iterating through AP map to find AHB-AP to use
T293C 000:040.611   AP[0]: Core found
T293C 000:040.624   AP[0]: AHB-AP ROM base: 0xE00FF000
T293C 000:041.028   CPUID register: 0x410FC241. Implementer code: 0x41 (ARM)
T293C 000:041.043   Found Cortex-M4 r0p1, Little endian.
T293C 000:041.292   -- Max. mem block: 0x00010E60
T293C 000:041.386   CPU_ReadMem(4 bytes @ 0xE000EDF0)
T293C 000:041.809   CPU_ReadMem(4 bytes @ 0xE0002000)
T293C 000:042.087   FPUnit: 6 code (BP) slots and 2 literal slots
T293C 000:042.094   CPU_ReadMem(4 bytes @ 0xE000EDFC)
T293C 000:042.346   CPU_WriteMem(4 bytes @ 0xE000EDFC)
T293C 000:042.628   CPU_ReadMem(4 bytes @ 0xE0001000)
T293C 000:042.880   CPU_WriteMem(4 bytes @ 0xE0001000)
T293C 000:043.157   CPU_ReadMem(4 bytes @ 0xE000ED88)
T293C 000:043.418   CPU_WriteMem(4 bytes @ 0xE000ED88)
T293C 000:043.748   CPU_ReadMem(4 bytes @ 0xE000ED88)
T293C 000:044.045   CPU_WriteMem(4 bytes @ 0xE000ED88)
T293C 000:044.340   CoreSight components:
T293C 000:044.370   ROMTbl[0] @ E00FF000
T293C 000:044.382   CPU_ReadMem(64 bytes @ 0xE00FF000)
T293C 000:045.053   CPU_ReadMem(32 bytes @ 0xE000EFE0)
T293C 000:045.577   [0][0]: E000E000 CID B105E00D PID 000BB00C SCS-M7
T293C 000:045.589   CPU_ReadMem(32 bytes @ 0xE0001FE0)
T293C 000:046.022   [0][1]: E0001000 CID B105E00D PID 003BB002 DWT
T293C 000:046.028   CPU_ReadMem(32 bytes @ 0xE0002FE0)
T293C 000:046.610   [0][2]: E0002000 CID B105E00D PID 002BB003 FPB
T293C 000:046.616   CPU_ReadMem(32 bytes @ 0xE0000FE0)
T293C 000:047.081   [0][3]: E0000000 CID B105E00D PID 003BB001 ITM
T293C 000:047.088   CPU_ReadMem(32 bytes @ 0xE0040FE0)
T293C 000:047.601   [0][4]: E0040000 CID B105900D PID 000BB9A1 TPIU
T293C 000:047.607   CPU_ReadMem(32 bytes @ 0xE0041FE0)
T293C 000:048.104   [0][5]: E0041000 CID B105900D PID 000BB925 ETM
T293C 000:048.287 - 17.229ms returns 0x2BA01477
T293C 000:048.298 JLINK_GetDLLVersion()
T293C 000:048.301 - 0.005ms returns 78200
T293C 000:048.334 JLINK_CORE_GetFound()
T293C 000:048.337 - 0.005ms returns 0xE0000FF
T293C 000:048.342 JLINK_GetDebugInfo(0x100 = JLINKARM_ROM_TABLE_ADDR_INDEX)
T293C 000:048.348   Value=0xE00FF000
T293C 000:048.353 - 0.012ms returns 0
T293C 000:048.361 JLINK_GetDebugInfo(0x100 = JLINKARM_ROM_TABLE_ADDR_INDEX)
T293C 000:048.365   Value=0xE00FF000
T293C 000:048.369 - 0.009ms returns 0
T293C 000:048.373 JLINK_GetDebugInfo(0x101 = JLINKARM_DEBUG_INFO_ETM_ADDR_INDEX)
T293C 000:048.376   Value=0xE0041000
T293C 000:048.397 - 0.025ms returns 0
T293C 000:048.404 JLINK_ReadMemEx(0xE0041FD0, 0x20 Bytes, Flags = 0x02000004)
T293C 000:048.423   CPU_ReadMem(32 bytes @ 0xE0041FD0)
T293C 000:048.873   Data:  04 00 00 00 00 00 00 00 00 00 00 00 00 00 00 00 ...
T293C 000:048.879 - 0.477ms returns 32 (0x20)
T293C 000:048.885 JLINK_GetDebugInfo(0x102 = JLINKARM_DEBUG_INFO_MTB_ADDR_INDEX)
T293C 000:048.889   Value=0x00000000
T293C 000:048.894 - 0.010ms returns 0
T293C 000:048.898 JLINK_GetDebugInfo(0x103 = JLINKARM_DEBUG_INFO_TPIU_ADDR_INDEX)
T293C 000:048.901   Value=0xE0040000
T293C 000:048.906 - 0.009ms returns 0
T293C 000:048.910 JLINK_GetDebugInfo(0x104 = JLINKARM_DEBUG_INFO_ITM_ADDR_INDEX)
T293C 000:048.913   Value=0xE0000000
T293C 000:048.917 - 0.009ms returns 0
T293C 000:048.921 JLINK_GetDebugInfo(0x105 = JLINKARM_DEBUG_INFO_DWT_ADDR_INDEX)
T293C 000:048.925   Value=0xE0001000
T293C 000:048.929 - 0.009ms returns 0
T293C 000:048.933 JLINK_GetDebugInfo(0x106 = JLINKARM_DEBUG_INFO_FPB_ADDR_INDEX)
T293C 000:048.936   Value=0xE0002000
T293C 000:048.941 - 0.009ms returns 0
T293C 000:048.945 JLINK_GetDebugInfo(0x107 = JLINKARM_DEBUG_INFO_NVIC_ADDR_INDEX)
T293C 000:048.948   Value=0xE000E000
T293C 000:048.952 - 0.009ms returns 0
T293C 000:048.956 JLINK_GetDebugInfo(0x10C = JLINKARM_DEBUG_INFO_DBG_ADDR_INDEX)
T293C 000:048.959   Value=0xE000EDF0
T293C 000:048.964 - 0.009ms returns 0
T293C 000:048.968 JLINK_GetDebugInfo(0x01 = Unknown)
T293C 000:048.973   Value=0x00000001
T293C 000:048.978 - 0.011ms returns 0
T293C 000:048.982 JLINK_ReadMemU32(0xE000ED00, 0x1 Items)
T293C 000:048.988   CPU_ReadMem(4 bytes @ 0xE000ED00)
T293C 000:049.296   Data:  41 C2 0F 41
T293C 000:049.301   Debug reg: CPUID
T293C 000:049.306 - 0.325ms returns 1 (0x1)
T293C 000:049.311 JLINK_GetDebugInfo(0x10F = JLINKARM_DEBUG_INFO_HAS_CORTEX_M_SECURITY_EXT_INDEX)
T293C 000:049.314   Value=0x00000000
T293C 000:049.318 - 0.009ms returns 0
T293C 000:049.323 JLINK_HasError()
T293C 000:049.327 JLINK_SetResetType(JLINKARM_CM3_RESET_TYPE_NORMAL)
T293C 000:049.331 - 0.005ms returns JLINKARM_CM3_RESET_TYPE_NORMAL
T293C 000:049.335 JLINK_Reset()
T293C 000:049.344   CPU is running
T293C 000:049.350   CPU_WriteMem(4 bytes @ 0xE000EDF0)
T293C 000:049.678   CPU is running
T293C 000:049.684   CPU_WriteMem(4 bytes @ 0xE000EDFC)
T293C 000:049.992   Reset: Halt core after reset via DEMCR.VC_CORERESET.
T293C 000:050.276   Reset: Reset device via AIRCR.SYSRESETREQ.
T293C 000:050.285   CPU is running
T293C 000:050.291   CPU_WriteMem(4 bytes @ 0xE000ED0C)
T293C 000:102.656   CPU_ReadMem(4 bytes @ 0xE000EDF0)
T293C 000:102.978   CPU_ReadMem(4 bytes @ 0xE000EDF0)
T293C 000:103.393   CPU is running
T293C 000:103.405   CPU_WriteMem(4 bytes @ 0xE000EDF0)
T293C 000:103.792   CPU is running
T293C 000:103.817   CPU_WriteMem(4 bytes @ 0xE000EDFC)
T293C 000:109.407   CPU_ReadMem(4 bytes @ 0xE000EDF0)
T293C 000:112.258   CPU_WriteMem(4 bytes @ 0xE0002000)
T293C 000:112.743   CPU_ReadMem(4 bytes @ 0xE000EDFC)
T293C 000:113.017   CPU_ReadMem(4 bytes @ 0xE0001000)
T293C 000:113.301 - 63.969ms
T293C 000:113.322 JLINK_HasError()
T293C 000:113.379 JLINK_ReadReg(R15 (PC))
T293C 000:113.394 - 0.018ms returns 0x08000260
T293C 000:113.401 JLINK_ReadReg(XPSR)
T293C 000:113.407 - 0.008ms returns 0x01000000
T293C 000:113.415 JLINK_Halt()
T293C 000:113.421 - 0.010ms returns 0x00
T293C 000:113.429 JLINK_ReadMemU32(0xE000EDF0, 0x1 Items)
T293C 000:113.439   CPU_ReadMem(4 bytes @ 0xE000EDF0)
T293C 000:113.729   Data:  03 00 03 00
T293C 000:113.739   Debug reg: DHCSR
T293C 000:113.746 - 0.319ms returns 1 (0x1)
T293C 000:113.756 JLINK_WriteU32_64(0xE000EDF0, 0xA05F0003)
T293C 000:113.765   Debug reg: DHCSR
T293C 000:114.056   CPU_WriteMem(4 bytes @ 0xE000EDF0)
T293C 000:114.397 - 0.652ms returns 0 (0x00000000)
T293C 000:114.428 JLINK_WriteU32_64(0xE000EDFC, 0x01000000)
T293C 000:114.436   Debug reg: DEMCR
T293C 000:114.449   CPU_WriteMem(4 bytes @ 0xE000EDFC)
T293C 000:114.753 - 0.328ms returns 0 (0x00000000)
T293C 000:114.817 JLINK_GetHWStatus(...)
T293C 000:114.965 - 0.150ms returns 0
T293C 000:114.989 JLINK_GetNumBPUnits(Type = 0xFFFFFF00)
T293C 000:114.996 - 0.009ms returns 0x06
T293C 000:115.003 JLINK_GetNumBPUnits(Type = 0xF0)
T293C 000:115.008 - 0.008ms returns 0x2000
T293C 000:115.015 JLINK_GetNumWPUnits()
T293C 000:115.020 - 0.008ms returns 4
T293C 000:115.037 JLINK_GetSpeed()
T293C 000:115.043 - 0.008ms returns 4000
T293C 000:115.055 JLINK_ReadMemU32(0xE000E004, 0x1 Items)
T293C 000:115.064   CPU_ReadMem(4 bytes @ 0xE000E004)
T293C 000:115.438   Data:  02 00 00 00
T293C 000:115.460 - 0.407ms returns 1 (0x1)
T293C 000:115.471 JLINK_ReadMemU32(0xE000E004, 0x1 Items)
T293C 000:115.490   CPU_ReadMem(4 bytes @ 0xE000E004)
T293C 000:115.789   Data:  02 00 00 00
T293C 000:115.809 - 0.340ms returns 1 (0x1)
T293C 000:115.820 JLINK_WriteMemEx(0xE0001000, 0x0000001C Bytes, Flags = 0x02000004)
T293C 000:115.827   Data:  01 00 00 00 00 00 00 00 00 00 00 00 00 00 00 00 ...
T293C 000:115.845   CPU_WriteMem(28 bytes @ 0xE0001000)
T293C 000:116.272 - 0.462ms returns 0x1C
T293C 000:116.290 JLINK_HasError()
T293C 000:116.299 JLINK_ReadReg(R15 (PC))
T293C 000:116.313 - 0.016ms returns 0x08000260
T293C 000:116.320 JLINK_ReadReg(XPSR)
T293C 000:116.326 - 0.008ms returns 0x01000000
T293C 000:118.663 JLINK_ReadMemEx(0xE0001004, 0x4 Bytes, Flags = 0x02000000)
T293C 000:118.675   Data:  00 00 00 00
T293C 000:118.680   Debug reg: DWT_CYCCNT
T293C 000:118.685 - 0.024ms returns 4 (0x4)
T293C 000:200.833 JLINK_HasError()
T293C 000:200.857 JLINK_SetResetType(JLINKARM_CM3_RESET_TYPE_NORMAL)
T293C 000:200.861 - 0.006ms returns JLINKARM_CM3_RESET_TYPE_NORMAL
T293C 000:200.866 JLINK_Reset()
T293C 000:200.879   CPU_WriteMem(4 bytes @ 0xE000EDF0)
T293C 000:201.251   CPU_WriteMem(4 bytes @ 0xE000EDFC)
T293C 000:201.643   Reset: Halt core after reset via DEMCR.VC_CORERESET.
T293C 000:202.045   Reset: Reset device via AIRCR.SYSRESETREQ.
T293C 000:202.051   CPU_WriteMem(4 bytes @ 0xE000ED0C)
T293C 000:254.915   CPU_ReadMem(4 bytes @ 0xE000EDF0)
T293C 000:255.209   CPU_ReadMem(4 bytes @ 0xE000EDF0)
T293C 000:255.532   CPU_WriteMem(4 bytes @ 0xE000EDF0)
T293C 000:255.825   CPU_WriteMem(4 bytes @ 0xE000EDFC)
T293C 000:261.749   CPU_ReadMem(4 bytes @ 0xE000EDF0)
T293C 000:264.739   CPU_WriteMem(4 bytes @ 0xE0002000)
T293C 000:265.045   CPU_ReadMem(4 bytes @ 0xE000EDFC)
T293C 000:265.527   CPU_ReadMem(4 bytes @ 0xE0001000)
T293C 000:265.799 - 64.937ms
T293C 000:265.853 JLINK_HasError()
T293C 000:265.867 JLINK_ReadReg(R15 (PC))
T293C 000:265.874 - 0.008ms returns 0x08000260
T293C 000:265.879 JLINK_ReadReg(XPSR)
T293C 000:265.883 - 0.005ms returns 0x01000000
T293C 000:266.171 JLINK_ReadMemEx(0x08000260, 0x3C Bytes, Flags = 0x02000000)
T293C 000:266.184   CPU_ReadMem(128 bytes @ 0x08000240)
T293C 000:267.192    -- Updating C cache (128 bytes @ 0x08000240)
T293C 000:267.199    -- Read from C cache (60 bytes @ 0x08000260)
T293C 000:267.205   Data:  06 48 80 47 06 48 00 47 FE E7 FE E7 FE E7 FE E7 ...
T293C 000:267.210 - 1.040ms returns 60 (0x3C)
T293C 000:267.216 JLINK_ReadMemEx(0x08000260, 0x2 Bytes, Flags = 0x02000000)
T293C 000:267.220    -- Read from C cache (2 bytes @ 0x08000260)
T293C 000:267.225   Data:  06 48
T293C 000:267.230 - 0.016ms returns 2 (0x2)
T293C 000:267.291 JLINK_ReadMemEx(0x08000262, 0x2 Bytes, Flags = 0x02000000)
T293C 000:267.295    -- Read from C cache (2 bytes @ 0x08000262)
T293C 000:267.300   Data:  80 47
T293C 000:267.304 - 0.014ms returns 2 (0x2)
T293C 000:267.316 JLINK_ReadMemEx(0x08000262, 0x2 Bytes, Flags = 0x02000000)
T293C 000:267.320    -- Read from C cache (2 bytes @ 0x08000262)
T293C 000:267.325   Data:  80 47
T293C 000:267.329 - 0.014ms returns 2 (0x2)
T293C 000:267.334 JLINK_ReadMemEx(0x08000264, 0x3C Bytes, Flags = 0x02000000)
T293C 000:267.337    -- Read from C cache (60 bytes @ 0x08000264)
T293C 000:267.342   Data:  06 48 00 47 FE E7 FE E7 FE E7 FE E7 FE E7 FE E7 ...
T293C 000:267.347 - 0.014ms returns 60 (0x3C)
T293C 000:267.351 JLINK_ReadMemEx(0x08000264, 0x2 Bytes, Flags = 0x02000000)
T293C 000:267.354    -- Read from C cache (2 bytes @ 0x08000264)
T293C 000:267.359   Data:  06 48
T293C 000:267.363 - 0.014ms returns 2 (0x2)
T293C 001:600.383 JLINK_ReadMemEx(0x08000264, 0x3C Bytes, Flags = 0x02000000)
T293C 001:600.408    -- Read from C cache (60 bytes @ 0x08000264)
T293C 001:600.414   Data:  06 48 00 47 FE E7 FE E7 FE E7 FE E7 FE E7 FE E7 ...
T293C 001:600.419 - 0.036ms returns 60 (0x3C)
T293C 001:600.423 JLINK_ReadMemEx(0x08000264, 0x2 Bytes, Flags = 0x02000000)
T293C 001:600.427    -- Read from C cache (2 bytes @ 0x08000264)
T293C 001:600.432   Data:  06 48
T293C 001:600.437 - 0.015ms returns 2 (0x2)
T293C 001:600.441 JLINK_ReadMemEx(0x08000266, 0x2 Bytes, Flags = 0x02000000)
T293C 001:600.445    -- Read from C cache (2 bytes @ 0x08000266)
T293C 001:600.450   Data:  00 47
T293C 001:600.454 - 0.014ms returns 2 (0x2)
T293C 001:795.705 JLINK_HasError()
T293C 001:795.721 JLINK_ReadReg(R0)
T293C 001:796.094 - 0.383ms returns 0x00000000
T293C 001:796.110 JLINK_ReadReg(R1)
T293C 001:796.114 - 0.005ms returns 0x00000000
T293C 001:796.119 JLINK_ReadReg(R2)
T293C 001:796.122 - 0.005ms returns 0x00000000
T293C 001:796.126 JLINK_ReadReg(R3)
T293C 001:796.129 - 0.004ms returns 0x00000000
T293C 001:796.133 JLINK_ReadReg(R4)
T293C 001:796.136 - 0.004ms returns 0x00000000
T293C 001:796.140 JLINK_ReadReg(R5)
T293C 001:796.143 - 0.004ms returns 0x00000000
T293C 001:796.147 JLINK_ReadReg(R6)
T293C 001:796.151 - 0.004ms returns 0x00000000
T293C 001:796.154 JLINK_ReadReg(R7)
T293C 001:796.158 - 0.004ms returns 0x00000000
T293C 001:796.162 JLINK_ReadReg(R8)
T293C 001:796.171 - 0.011ms returns 0x00000000
T293C 001:796.175 JLINK_ReadReg(R9)
T293C 001:796.178 - 0.005ms returns 0x00000000
T293C 001:796.183 JLINK_ReadReg(R10)
T293C 001:796.186 - 0.004ms returns 0x00000000
T293C 001:796.190 JLINK_ReadReg(R11)
T293C 001:796.193 - 0.004ms returns 0x00000000
T293C 001:796.197 JLINK_ReadReg(R12)
T293C 001:796.200 - 0.005ms returns 0x00000000
T293C 001:796.204 JLINK_ReadReg(R13 (SP))
T293C 001:796.208 - 0.005ms returns 0x200047F0
T293C 001:796.212 JLINK_ReadReg(R14)
T293C 001:796.215 - 0.004ms returns 0xFFFFFFFF
T293C 001:796.219 JLINK_ReadReg(R15 (PC))
T293C 001:796.222 - 0.005ms returns 0x08000260
T293C 001:796.226 JLINK_ReadReg(XPSR)
T293C 001:796.230 - 0.005ms returns 0x01000000
T293C 001:796.234 JLINK_ReadReg(MSP)
T293C 001:796.237 - 0.004ms returns 0x200047F0
T293C 001:796.241 JLINK_ReadReg(PSP)
T293C 001:796.284 - 0.046ms returns 0x00000000
T293C 001:796.290 JLINK_ReadReg(CFBP)
T293C 001:796.293 - 0.004ms returns 0x00000000
T293C 001:796.297 JLINK_ReadReg(FPSCR)
T293C 001:800.248 - 3.963ms returns 0x00000000
T293C 001:800.269 JLINK_ReadReg(FPS0)
T293C 001:800.274 - 0.006ms returns 0x00000000
T293C 001:800.277 JLINK_ReadReg(FPS1)
T293C 001:800.281 - 0.005ms returns 0x00000000
T293C 001:800.285 JLINK_ReadReg(FPS2)
T293C 001:800.288 - 0.004ms returns 0x00000000
T293C 001:800.292 JLINK_ReadReg(FPS3)
T293C 001:800.295 - 0.004ms returns 0x00000000
T293C 001:800.298 JLINK_ReadReg(FPS4)
T293C 001:800.302 - 0.005ms returns 0x00000000
T293C 001:800.306 JLINK_ReadReg(FPS5)
T293C 001:800.309 - 0.004ms returns 0x00000000
T293C 001:800.338 JLINK_ReadReg(FPS6)
T293C 001:800.342 - 0.006ms returns 0x00000000
T293C 001:800.347 JLINK_ReadReg(FPS7)
T293C 001:800.350 - 0.004ms returns 0x00000000
T293C 001:800.354 JLINK_ReadReg(FPS8)
T293C 001:800.357 - 0.004ms returns 0x00000000
T293C 001:800.361 JLINK_ReadReg(FPS9)
T293C 001:800.364 - 0.004ms returns 0x00000000
T293C 001:800.368 JLINK_ReadReg(FPS10)
T293C 001:800.371 - 0.004ms returns 0x00000000
T293C 001:800.375 JLINK_ReadReg(FPS11)
T293C 001:800.378 - 0.004ms returns 0x00000000
T293C 001:800.382 JLINK_ReadReg(FPS12)
T293C 001:800.385 - 0.004ms returns 0x00000000
T293C 001:800.389 JLINK_ReadReg(FPS13)
T293C 001:800.393 - 0.004ms returns 0x00000000
T293C 001:800.397 JLINK_ReadReg(FPS14)
T293C 001:800.400 - 0.004ms returns 0x00000000
T293C 001:800.404 JLINK_ReadReg(FPS15)
T293C 001:800.407 - 0.004ms returns 0x00000000
T293C 001:800.411 JLINK_ReadReg(FPS16)
T293C 001:800.414 - 0.005ms returns 0x00000000
T293C 001:800.418 JLINK_ReadReg(FPS17)
T293C 001:800.421 - 0.004ms returns 0x00000000
T293C 001:800.425 JLINK_ReadReg(FPS18)
T293C 001:800.428 - 0.004ms returns 0x00000000
T293C 001:800.432 JLINK_ReadReg(FPS19)
T293C 001:800.436 - 0.004ms returns 0x00000000
T293C 001:800.439 JLINK_ReadReg(FPS20)
T293C 001:800.443 - 0.004ms returns 0x00000000
T293C 001:800.447 JLINK_ReadReg(FPS21)
T293C 001:800.450 - 0.004ms returns 0x00000000
T293C 001:800.454 JLINK_ReadReg(FPS22)
T293C 001:800.457 - 0.004ms returns 0x00000000
T293C 001:800.461 JLINK_ReadReg(FPS23)
T293C 001:800.464 - 0.004ms returns 0x00000000
T293C 001:800.468 JLINK_ReadReg(FPS24)
T293C 001:800.471 - 0.004ms returns 0x00000000
T293C 001:800.475 JLINK_ReadReg(FPS25)
T293C 001:800.478 - 0.004ms returns 0x00000000
T293C 001:800.482 JLINK_ReadReg(FPS26)
T293C 001:800.485 - 0.005ms returns 0x00000000
T293C 001:800.489 JLINK_ReadReg(FPS27)
T293C 001:800.492 - 0.004ms returns 0x00000000
T293C 001:800.496 JLINK_ReadReg(FPS28)
T293C 001:800.499 - 0.004ms returns 0x00000000
T293C 001:800.503 JLINK_ReadReg(FPS29)
T293C 001:800.507 - 0.004ms returns 0x00000000
T293C 001:800.512 JLINK_ReadReg(FPS30)
T293C 001:800.515 - 0.004ms returns 0x00000000
T293C 001:800.518 JLINK_ReadReg(FPS31)
T293C 001:800.521 - 0.004ms returns 0x00000000
T293C 001:824.011 JLINK_ReadMemEx(0x200002B8, 0x2 Bytes, Flags = 0x02000000)
T293C 001:824.045   CPU_ReadMem(64 bytes @ 0x20000280)
T293C 001:824.766    -- Updating C cache (64 bytes @ 0x20000280)
T293C 001:824.772    -- Read from C cache (2 bytes @ 0x200002B8)
T293C 001:824.777   Data:  00 00
T293C 001:824.782 - 0.772ms returns 2 (0x2)
T293C 001:825.119 JLINK_ReadMemEx(0x200002B8, 0x2 Bytes, Flags = 0x02000000)
T293C 001:825.127    -- Read from C cache (2 bytes @ 0x200002B8)
T293C 001:825.132   Data:  00 00
T293C 001:825.137 - 0.019ms returns 2 (0x2)
T293C 001:825.154 JLINK_ReadMemEx(0x200002B8, 0x2 Bytes, Flags = 0x02000000)
T293C 001:825.159    -- Read from C cache (2 bytes @ 0x200002B8)
T293C 001:825.164   Data:  00 00
T293C 001:825.168 - 0.015ms returns 2 (0x2)
T293C 001:832.847 JLINK_ReadMemEx(0x2000001A, 0x2 Bytes, Flags = 0x02000000)
T293C 001:832.874   CPU_ReadMem(64 bytes @ 0x20000000)
T293C 001:833.602    -- Updating C cache (64 bytes @ 0x20000000)
T293C 001:833.608    -- Read from C cache (2 bytes @ 0x2000001A)
T293C 001:833.613   Data:  00 00
T293C 001:833.624 - 0.778ms returns 2 (0x2)
T293C 001:833.777 JLINK_ReadMemEx(0x2000001A, 0x2 Bytes, Flags = 0x02000000)
T293C 001:833.783    -- Read from C cache (2 bytes @ 0x2000001A)
T293C 001:833.788   Data:  00 00
T293C 001:833.793 - 0.017ms returns 2 (0x2)
T293C 001:833.811 JLINK_ReadMemEx(0x2000001A, 0x2 Bytes, Flags = 0x02000000)
T293C 001:833.815    -- Read from C cache (2 bytes @ 0x2000001A)
T293C 001:833.820   Data:  00 00
T293C 001:833.824 - 0.015ms returns 2 (0x2)
T293C 001:856.314 JLINK_ReadMemEx(0x200002B8, 0x2 Bytes, Flags = 0x02000000)
T293C 001:856.340    -- Read from C cache (2 bytes @ 0x200002B8)
T293C 001:856.345   Data:  00 00
T293C 001:856.351 - 0.038ms returns 2 (0x2)
T293C 001:856.362 JLINK_ReadMemEx(0x200002B8, 0x2 Bytes, Flags = 0x02000000)
T293C 001:856.366    -- Read from C cache (2 bytes @ 0x200002B8)
T293C 001:856.371   Data:  00 00
T293C 001:856.375 - 0.015ms returns 2 (0x2)
T293C 001:856.389 JLINK_ReadMemEx(0x200002B8, 0x2 Bytes, Flags = 0x02000000)
T293C 001:856.392    -- Read from C cache (2 bytes @ 0x200002B8)
T293C 001:856.397   Data:  00 00
T293C 001:856.401 - 0.013ms returns 2 (0x2)
T293C 001:863.626 JLINK_ReadMemEx(0x20000044, 0x1 Bytes, Flags = 0x02000000)
T293C 001:863.657   CPU_ReadMem(64 bytes @ 0x20000040)
T293C 001:864.340    -- Updating C cache (64 bytes @ 0x20000040)
T293C 001:864.355    -- Read from C cache (1 bytes @ 0x20000044)
T293C 001:864.360   Data:  00
T293C 001:864.365 - 0.740ms returns 1 (0x1)
T293C 001:864.589 JLINK_ReadMemEx(0x20000044, 0x1 Bytes, Flags = 0x02000000)
T293C 001:864.597    -- Read from C cache (1 bytes @ 0x20000044)
T293C 001:864.602   Data:  00
T293C 001:864.606 - 0.019ms returns 1 (0x1)
T293C 001:864.624 JLINK_ReadMemEx(0x20000044, 0x1 Bytes, Flags = 0x02000000)
T293C 001:864.629    -- Read from C cache (1 bytes @ 0x20000044)
T293C 001:864.634   Data:  00
T293C 001:864.638 - 0.015ms returns 1 (0x1)
T293C 001:870.303 JLINK_ReadMemEx(0x20000044, 0x1 Bytes, Flags = 0x02000000)
T293C 001:870.325    -- Read from C cache (1 bytes @ 0x20000044)
T293C 001:870.331   Data:  00
T293C 001:870.336 - 0.034ms returns 1 (0x1)
T293C 001:870.484 JLINK_ReadMemEx(0x20000044, 0x1 Bytes, Flags = 0x02000000)
T293C 001:870.489    -- Read from C cache (1 bytes @ 0x20000044)
T293C 001:870.494   Data:  00
T293C 001:870.498 - 0.016ms returns 1 (0x1)
T293C 001:870.515 JLINK_ReadMemEx(0x20000044, 0x1 Bytes, Flags = 0x02000000)
T293C 001:870.519    -- Read from C cache (1 bytes @ 0x20000044)
T293C 001:870.523   Data:  00
T293C 001:870.528 - 0.014ms returns 1 (0x1)
T293C 001:884.028 JLINK_ReadMemEx(0x20000204, 0x4 Bytes, Flags = 0x02000000)
T293C 001:884.059   CPU_ReadMem(64 bytes @ 0x20000200)
T293C 001:884.752    -- Updating C cache (64 bytes @ 0x20000200)
T293C 001:884.758    -- Read from C cache (4 bytes @ 0x20000204)
T293C 001:884.764   Data:  00 C3 A5 42
T293C 001:884.769 - 0.742ms returns 4 (0x4)
T293C 001:884.940 JLINK_ReadMemEx(0x20000204, 0x4 Bytes, Flags = 0x02000000)
T293C 001:884.946    -- Read from C cache (4 bytes @ 0x20000204)
T293C 001:884.951   Data:  00 C3 A5 42
T293C 001:884.956 - 0.017ms returns 4 (0x4)
T293C 001:884.972 JLINK_ReadMemEx(0x20000204, 0x4 Bytes, Flags = 0x02000000)
T293C 001:884.977    -- Read from C cache (4 bytes @ 0x20000204)
T293C 001:884.981   Data:  00 C3 A5 42
T293C 001:884.986 - 0.015ms returns 4 (0x4)
T293C 001:899.185 JLINK_ReadMemEx(0x2000000A, 0x2 Bytes, Flags = 0x02000000)
T293C 001:899.220    -- Read from C cache (2 bytes @ 0x2000000A)
T293C 001:899.226   Data:  00 00
T293C 001:899.232 - 0.048ms returns 2 (0x2)
T7DF8 001:920.713 JLINK_ReadMemEx(0x08000260, 0x2 Bytes, Flags = 0x02000000)
T7DF8 001:920.741    -- Read from C cache (2 bytes @ 0x08000260)
T7DF8 001:920.746   Data:  06 48
T7DF8 001:920.752 - 0.040ms returns 2 (0x2)
T7DF8 001:920.757 JLINK_HasError()
T7DF8 001:920.764 JLINK_SetBPEx(Addr = 0x0800472C, Type = 0xFFFFFFF2)
T7DF8 001:920.780 - 0.017ms returns 0x00000001
T7DF8 001:920.785 JLINK_HasError()
T7DF8 001:920.788 JLINK_SetBPEx(Addr = 0x08005018, Type = 0xFFFFFFF2)
T7DF8 001:920.799 - 0.012ms returns 0x00000002
T7DF8 001:920.803 JLINK_HasError()
T7DF8 001:920.807 JLINK_SetBPEx(Addr = 0x08005010, Type = 0xFFFFFFF2)
T7DF8 001:920.810 - 0.005ms returns 0x00000003
T7DF8 001:920.815 JLINK_HasError()
T7DF8 001:920.819 JLINK_HasError()
T7DF8 001:920.823 JLINK_Go()
T7DF8 001:920.834   CPU_WriteMem(4 bytes @ 0xE0002000)
T7DF8 001:921.159   CPU_WriteMem(4 bytes @ 0xE0002000)
T7DF8 001:921.551   CPU_WriteMem(4 bytes @ 0xE0002000)
T7DF8 001:921.864   CPU_ReadMem(4 bytes @ 0xE0001000)
T7DF8 001:922.134   CPU_WriteMem(4 bytes @ 0xE0002008)
T7DF8 001:922.145   CPU_WriteMem(4 bytes @ 0xE000200C)
T7DF8 001:922.150   CPU_WriteMem(4 bytes @ 0xE0002010)
T7DF8 001:922.154   CPU_WriteMem(4 bytes @ 0xE0002014)
T7DF8 001:922.159   CPU_WriteMem(4 bytes @ 0xE0002018)
T7DF8 001:922.164   CPU_WriteMem(4 bytes @ 0xE000201C)
T7DF8 001:923.418   CPU_WriteMem(4 bytes @ 0xE0001004)
T7DF8 001:924.153 - 3.339ms
T7DF8 002:024.630 JLINK_HasError()
T7DF8 002:024.664 JLINK_IsHalted()
T7DF8 002:027.230 - 2.577ms returns TRUE
T7DF8 002:027.247 JLINK_HasError()
T7DF8 002:027.252 JLINK_Halt()
T7DF8 002:027.290 - 0.040ms returns 0x00
T7DF8 002:027.294 JLINK_IsHalted()
T7DF8 002:027.298 - 0.004ms returns TRUE
T7DF8 002:027.302 JLINK_IsHalted()
T7DF8 002:027.305 - 0.004ms returns TRUE
T7DF8 002:027.309 JLINK_IsHalted()
T7DF8 002:027.312 - 0.005ms returns TRUE
T7DF8 002:027.330 JLINK_HasError()
T7DF8 002:027.370 JLINK_ReadReg(R15 (PC))
T7DF8 002:027.378 - 0.009ms returns 0x0800472C
T7DF8 002:027.382 JLINK_ReadReg(XPSR)
T7DF8 002:027.386 - 0.005ms returns 0x61000000
T7DF8 002:027.393 JLINK_HasError()
T7DF8 002:027.397 JLINK_ClrBPEx(BPHandle = 0x00000001)
T7DF8 002:027.401 - 0.005ms returns 0x00
T7DF8 002:027.406 JLINK_HasError()
T7DF8 002:027.410 JLINK_ClrBPEx(BPHandle = 0x00000002)
T7DF8 002:027.413 - 0.005ms returns 0x00
T7DF8 002:027.417 JLINK_HasError()
T7DF8 002:027.421 JLINK_ClrBPEx(BPHandle = 0x00000003)
T7DF8 002:027.425 - 0.005ms returns 0x00
T7DF8 002:027.429 JLINK_HasError()
T7DF8 002:027.446 JLINK_HasError()
T7DF8 002:027.456 JLINK_ReadMemU32(0xE000ED30, 0x1 Items)
T7DF8 002:027.473   CPU_ReadMem(4 bytes @ 0xE000ED30)
T7DF8 002:027.755   Data:  02 00 00 00
T7DF8 002:027.768 - 0.313ms returns 1 (0x1)
T7DF8 002:027.774 JLINK_ReadMemU32(0xE0001028, 0x1 Items)
T7DF8 002:027.782   CPU_ReadMem(4 bytes @ 0xE0001028)
T7DF8 002:028.057   Data:  00 00 00 00
T7DF8 002:028.064   Debug reg: DWT_FUNC[0]
T7DF8 002:028.069 - 0.295ms returns 1 (0x1)
T7DF8 002:028.074 JLINK_ReadMemU32(0xE0001038, 0x1 Items)
T7DF8 002:028.080   CPU_ReadMem(4 bytes @ 0xE0001038)
T7DF8 002:028.356   Data:  00 02 00 00
T7DF8 002:028.362   Debug reg: DWT_FUNC[1]
T7DF8 002:028.367 - 0.294ms returns 1 (0x1)
T7DF8 002:028.372 JLINK_ReadMemU32(0xE0001048, 0x1 Items)
T7DF8 002:028.377   CPU_ReadMem(4 bytes @ 0xE0001048)
T7DF8 002:028.643   Data:  00 00 00 00
T7DF8 002:028.654   Debug reg: DWT_FUNC[2]
T7DF8 002:028.659 - 0.289ms returns 1 (0x1)
T7DF8 002:028.665 JLINK_ReadMemU32(0xE0001058, 0x1 Items)
T7DF8 002:028.673   CPU_ReadMem(4 bytes @ 0xE0001058)
T7DF8 002:028.945   Data:  00 00 00 00
T7DF8 002:028.950   Debug reg: DWT_FUNC[3]
T7DF8 002:028.955 - 0.291ms returns 1 (0x1)
T7DF8 002:028.986 JLINK_HasError()
T7DF8 002:028.991 JLINK_ReadReg(R0)
T7DF8 002:028.995 - 0.006ms returns 0x0800472D
T7DF8 002:029.000 JLINK_ReadReg(R1)
T7DF8 002:029.003 - 0.005ms returns 0x200047F0
T7DF8 002:029.007 JLINK_ReadReg(R2)
T7DF8 002:029.010 - 0.004ms returns 0x00000000
T7DF8 002:029.014 JLINK_ReadReg(R3)
T7DF8 002:029.018 - 0.004ms returns 0x080044E1
T7DF8 002:029.022 JLINK_ReadReg(R4)
T7DF8 002:029.025 - 0.004ms returns 0x08005CF0
T7DF8 002:029.029 JLINK_ReadReg(R5)
T7DF8 002:029.032 - 0.004ms returns 0x08005CF0
T7DF8 002:029.036 JLINK_ReadReg(R6)
T7DF8 002:029.040 - 0.005ms returns 0x00000000
T7DF8 002:029.044 JLINK_ReadReg(R7)
T7DF8 002:029.047 - 0.004ms returns 0x00000000
T7DF8 002:029.051 JLINK_ReadReg(R8)
T7DF8 002:029.054 - 0.005ms returns 0x00000000
T7DF8 002:029.062 JLINK_ReadReg(R9)
T7DF8 002:029.067 - 0.006ms returns 0x00000000
T7DF8 002:029.071 JLINK_ReadReg(R10)
T7DF8 002:029.075 - 0.005ms returns 0x00000000
T7DF8 002:029.079 JLINK_ReadReg(R11)
T7DF8 002:029.082 - 0.004ms returns 0x00000000
T7DF8 002:029.086 JLINK_ReadReg(R12)
T7DF8 002:029.089 - 0.004ms returns 0x00000000
T7DF8 002:029.102 JLINK_ReadReg(R13 (SP))
T7DF8 002:029.106 - 0.005ms returns 0x200047F0
T7DF8 002:029.110 JLINK_ReadReg(R14)
T7DF8 002:029.113 - 0.004ms returns 0x080003E1
T7DF8 002:029.117 JLINK_ReadReg(R15 (PC))
T7DF8 002:029.121 - 0.005ms returns 0x0800472C
T7DF8 002:029.125 JLINK_ReadReg(XPSR)
T7DF8 002:029.128 - 0.005ms returns 0x61000000
T7DF8 002:029.132 JLINK_ReadReg(MSP)
T7DF8 002:029.135 - 0.004ms returns 0x200047F0
T7DF8 002:029.139 JLINK_ReadReg(PSP)
T7DF8 002:029.143 - 0.004ms returns 0x00000000
T7DF8 002:029.147 JLINK_ReadReg(CFBP)
T7DF8 002:029.150 - 0.005ms returns 0x00000000
T7DF8 002:029.154 JLINK_ReadReg(FPSCR)
T7DF8 002:033.134 - 3.991ms returns 0x00000000
T7DF8 002:033.155 JLINK_ReadReg(FPS0)
T7DF8 002:033.161 - 0.007ms returns 0x00000000
T7DF8 002:033.193 JLINK_ReadReg(FPS1)
T7DF8 002:033.197 - 0.006ms returns 0x00000000
T7DF8 002:033.202 JLINK_ReadReg(FPS2)
T7DF8 002:033.205 - 0.005ms returns 0x00000000
T7DF8 002:033.209 JLINK_ReadReg(FPS3)
T7DF8 002:033.213 - 0.004ms returns 0x00000000
T7DF8 002:033.217 JLINK_ReadReg(FPS4)
T7DF8 002:033.220 - 0.004ms returns 0x00000000
T7DF8 002:033.224 JLINK_ReadReg(FPS5)
T7DF8 002:033.227 - 0.004ms returns 0x00000000
T7DF8 002:033.231 JLINK_ReadReg(FPS6)
T7DF8 002:033.234 - 0.004ms returns 0x00000000
T7DF8 002:033.238 JLINK_ReadReg(FPS7)
T7DF8 002:033.241 - 0.004ms returns 0x00000000
T7DF8 002:033.245 JLINK_ReadReg(FPS8)
T7DF8 002:033.249 - 0.004ms returns 0x00000000
T7DF8 002:033.253 JLINK_ReadReg(FPS9)
T7DF8 002:033.256 - 0.004ms returns 0x00000000
T7DF8 002:033.260 JLINK_ReadReg(FPS10)
T7DF8 002:033.263 - 0.005ms returns 0x00000000
T7DF8 002:033.267 JLINK_ReadReg(FPS11)
T7DF8 002:033.270 - 0.004ms returns 0x00000000
T7DF8 002:033.274 JLINK_ReadReg(FPS12)
T7DF8 002:033.277 - 0.004ms returns 0x00000000
T7DF8 002:033.281 JLINK_ReadReg(FPS13)
T7DF8 002:033.285 - 0.004ms returns 0x00000000
T7DF8 002:033.289 JLINK_ReadReg(FPS14)
T7DF8 002:033.292 - 0.005ms returns 0x00000000
T7DF8 002:033.296 JLINK_ReadReg(FPS15)
T7DF8 002:033.299 - 0.004ms returns 0x00000000
T7DF8 002:033.303 JLINK_ReadReg(FPS16)
T7DF8 002:033.306 - 0.004ms returns 0x00000000
T7DF8 002:033.310 JLINK_ReadReg(FPS17)
T7DF8 002:033.314 - 0.004ms returns 0x00000000
T7DF8 002:033.317 JLINK_ReadReg(FPS18)
T7DF8 002:033.321 - 0.004ms returns 0x00000000
T7DF8 002:033.325 JLINK_ReadReg(FPS19)
T7DF8 002:033.328 - 0.004ms returns 0x00000000
T7DF8 002:033.332 JLINK_ReadReg(FPS20)
T7DF8 002:033.335 - 0.004ms returns 0x00000000
T7DF8 002:033.339 JLINK_ReadReg(FPS21)
T7DF8 002:033.342 - 0.004ms returns 0x00000000
T7DF8 002:033.346 JLINK_ReadReg(FPS22)
T7DF8 002:033.349 - 0.004ms returns 0x00000000
T7DF8 002:033.353 JLINK_ReadReg(FPS23)
T7DF8 002:033.357 - 0.005ms returns 0x00000000
T7DF8 002:033.361 JLINK_ReadReg(FPS24)
T7DF8 002:033.364 - 0.004ms returns 0x00000000
T7DF8 002:033.368 JLINK_ReadReg(FPS25)
T7DF8 002:033.371 - 0.004ms returns 0x00000000
T7DF8 002:033.375 JLINK_ReadReg(FPS26)
T7DF8 002:033.378 - 0.004ms returns 0x00000000
T7DF8 002:033.382 JLINK_ReadReg(FPS27)
T7DF8 002:033.385 - 0.004ms returns 0x00000000
T7DF8 002:033.389 JLINK_ReadReg(FPS28)
T7DF8 002:033.392 - 0.004ms returns 0x00000000
T7DF8 002:033.396 JLINK_ReadReg(FPS29)
T7DF8 002:033.400 - 0.004ms returns 0x00000000
T7DF8 002:033.403 JLINK_ReadReg(FPS30)
T7DF8 002:033.407 - 0.004ms returns 0x00000000
T7DF8 002:033.411 JLINK_ReadReg(FPS31)
T7DF8 002:033.414 - 0.004ms returns 0x00000000
T7DF8 002:033.421 JLINK_ReadMemEx(0x20000244, 0x4 Bytes, Flags = 0x02000000)
T7DF8 002:033.431   CPU_ReadMem(64 bytes @ 0x20000240)
T7DF8 002:034.073    -- Updating C cache (64 bytes @ 0x20000240)
T7DF8 002:034.086    -- Read from C cache (4 bytes @ 0x20000244)
T7DF8 002:034.133   Data:  00 00 00 00
T7DF8 002:034.138 - 0.719ms returns 4 (0x4)
T293C 002:034.564 JLINK_ReadMemEx(0x200002B8, 0x2 Bytes, Flags = 0x02000000)
T293C 002:034.579   CPU_ReadMem(64 bytes @ 0x20000280)
T293C 002:035.293    -- Updating C cache (64 bytes @ 0x20000280)
T293C 002:035.323    -- Read from C cache (2 bytes @ 0x200002B8)
T293C 002:035.328   Data:  00 00
T293C 002:035.332 - 0.769ms returns 2 (0x2)
T293C 002:035.349 JLINK_ReadMemEx(0x2000001A, 0x2 Bytes, Flags = 0x02000000)
T293C 002:035.354   CPU_ReadMem(64 bytes @ 0x20000000)
T293C 002:036.008    -- Updating C cache (64 bytes @ 0x20000000)
T293C 002:036.021    -- Read from C cache (2 bytes @ 0x2000001A)
T293C 002:036.026   Data:  00 00
T293C 002:036.031 - 0.684ms returns 2 (0x2)
T293C 002:037.869 JLINK_ReadMemEx(0x200002B8, 0x2 Bytes, Flags = 0x02000000)
T293C 002:037.881    -- Read from C cache (2 bytes @ 0x200002B8)
T293C 002:037.886   Data:  00 00
T293C 002:037.891 - 0.023ms returns 2 (0x2)
T293C 002:037.904 JLINK_ReadMemEx(0x20000044, 0x1 Bytes, Flags = 0x02000000)
T293C 002:037.910   CPU_ReadMem(64 bytes @ 0x20000040)
T293C 002:038.664    -- Updating C cache (64 bytes @ 0x20000040)
T293C 002:038.697    -- Read from C cache (1 bytes @ 0x20000044)
T293C 002:038.726   Data:  01
T293C 002:038.736 - 0.833ms returns 1 (0x1)
T293C 002:038.751 JLINK_ReadMemEx(0x20000044, 0x1 Bytes, Flags = 0x02000000)
T293C 002:038.755    -- Read from C cache (1 bytes @ 0x20000044)
T293C 002:038.759   Data:  01
T293C 002:038.764 - 0.015ms returns 1 (0x1)
T293C 002:039.102 JLINK_ReadMemEx(0x20000204, 0x4 Bytes, Flags = 0x02000000)
T293C 002:039.108   CPU_ReadMem(64 bytes @ 0x20000200)
T293C 002:039.800    -- Updating C cache (64 bytes @ 0x20000200)
T293C 002:039.812    -- Read from C cache (4 bytes @ 0x20000204)
T293C 002:039.817   Data:  00 00 00 00
T293C 002:039.822 - 0.720ms returns 4 (0x4)
T7DF8 002:722.066 JLINK_ReadMemEx(0x0800472C, 0x2 Bytes, Flags = 0x02000000)
T7DF8 002:722.101   CPU_ReadMem(64 bytes @ 0x08004700)
T7DF8 002:722.789    -- Updating C cache (64 bytes @ 0x08004700)
T7DF8 002:722.796    -- Read from C cache (2 bytes @ 0x0800472C)
T7DF8 002:722.801   Data:  FD F7
T7DF8 002:722.806 - 0.741ms returns 2 (0x2)
T7DF8 002:722.816 JLINK_HasError()
T7DF8 002:722.852 JLINK_SetBPEx(Addr = 0x08005018, Type = 0xFFFFFFF2)
T7DF8 002:722.901 - 0.056ms returns 0x00000004
T7DF8 002:722.912 JLINK_HasError()
T7DF8 002:722.917 JLINK_SetBPEx(Addr = 0x08005010, Type = 0xFFFFFFF2)
T7DF8 002:722.921 - 0.005ms returns 0x00000005
T7DF8 002:722.925 JLINK_HasError()
T7DF8 002:722.929 JLINK_HasError()
T7DF8 002:722.934 JLINK_Go()
T7DF8 002:723.201   CPU_WriteMem(4 bytes @ 0xE0002000)
T7DF8 002:723.524   CPU_WriteMem(4 bytes @ 0xE0002000)
T7DF8 002:723.829   CPU_ReadMem(4 bytes @ 0xE0001000)
T7DF8 002:724.105   CPU_WriteMem(4 bytes @ 0xE0002008)
T7DF8 002:724.118   CPU_WriteMem(4 bytes @ 0xE000200C)
T7DF8 002:724.123   CPU_WriteMem(4 bytes @ 0xE0002010)
T7DF8 002:725.229 - 2.306ms
T7DF8 002:825.348 JLINK_HasError()
T7DF8 002:825.372 JLINK_IsHalted()
T7DF8 002:825.793 - 0.434ms returns FALSE
T7DF8 002:925.855 JLINK_HasError()
T7DF8 002:925.880 JLINK_IsHalted()
T7DF8 002:928.579 - 2.711ms returns TRUE
T7DF8 002:928.600 JLINK_HasError()
T7DF8 002:928.605 JLINK_Halt()
T7DF8 002:928.609 - 0.005ms returns 0x00
T7DF8 002:928.613 JLINK_IsHalted()
T7DF8 002:928.617 - 0.004ms returns TRUE
T7DF8 002:928.621 JLINK_IsHalted()
T7DF8 002:928.624 - 0.004ms returns TRUE
T7DF8 002:928.628 JLINK_IsHalted()
T7DF8 002:928.631 - 0.004ms returns TRUE
T7DF8 002:928.679 JLINK_HasError()
T7DF8 002:928.685 JLINK_ReadReg(R15 (PC))
T7DF8 002:928.690 - 0.006ms returns 0x08005010
T7DF8 002:928.694 JLINK_ReadReg(XPSR)
T7DF8 002:928.698 - 0.005ms returns 0x61000000
T7DF8 002:928.705 JLINK_HasError()
T7DF8 002:928.709 JLINK_ClrBPEx(BPHandle = 0x00000004)
T7DF8 002:928.713 - 0.005ms returns 0x00
T7DF8 002:928.717 JLINK_HasError()
T7DF8 002:928.721 JLINK_ClrBPEx(BPHandle = 0x00000005)
T7DF8 002:928.724 - 0.009ms returns 0x00
T7DF8 002:928.735 JLINK_HasError()
T7DF8 002:928.739 JLINK_HasError()
T7DF8 002:928.743 JLINK_ReadMemU32(0xE000ED30, 0x1 Items)
T7DF8 002:928.751   CPU_ReadMem(4 bytes @ 0xE000ED30)
T7DF8 002:929.052   Data:  02 00 00 00
T7DF8 002:929.057 - 0.315ms returns 1 (0x1)
T7DF8 002:929.062 JLINK_ReadMemU32(0xE0001028, 0x1 Items)
T7DF8 002:929.067   CPU_ReadMem(4 bytes @ 0xE0001028)
T7DF8 002:929.318   Data:  00 00 00 00
T7DF8 002:929.324   Debug reg: DWT_FUNC[0]
T7DF8 002:929.329 - 0.268ms returns 1 (0x1)
T7DF8 002:929.333 JLINK_ReadMemU32(0xE0001038, 0x1 Items)
T7DF8 002:929.337   CPU_ReadMem(4 bytes @ 0xE0001038)
T7DF8 002:929.578   Data:  00 02 00 00
T7DF8 002:929.583   Debug reg: DWT_FUNC[1]
T7DF8 002:929.588 - 0.256ms returns 1 (0x1)
T7DF8 002:929.593 JLINK_ReadMemU32(0xE0001048, 0x1 Items)
T7DF8 002:929.597   CPU_ReadMem(4 bytes @ 0xE0001048)
T7DF8 002:929.893   Data:  00 00 00 00
T7DF8 002:929.899   Debug reg: DWT_FUNC[2]
T7DF8 002:929.903 - 0.312ms returns 1 (0x1)
T7DF8 002:929.908 JLINK_ReadMemU32(0xE0001058, 0x1 Items)
T7DF8 002:929.912   CPU_ReadMem(4 bytes @ 0xE0001058)
T7DF8 002:930.202   Data:  00 00 00 00
T7DF8 002:930.215   Debug reg: DWT_FUNC[3]
T7DF8 002:930.220 - 0.314ms returns 1 (0x1)
T7DF8 002:930.248 JLINK_HasError()
T7DF8 002:930.253 JLINK_ReadReg(R0)
T7DF8 002:930.259 - 0.007ms returns 0x00000000
T7DF8 002:930.263 JLINK_ReadReg(R1)
T7DF8 002:930.266 - 0.005ms returns 0x20000018
T7DF8 002:930.270 JLINK_ReadReg(R2)
T7DF8 002:930.274 - 0.004ms returns 0x20000788
T7DF8 002:930.278 JLINK_ReadReg(R3)
T7DF8 002:930.281 - 0.004ms returns 0x00000078
T7DF8 002:930.285 JLINK_ReadReg(R4)
T7DF8 002:930.288 - 0.005ms returns 0x00000000
T7DF8 002:930.292 JLINK_ReadReg(R5)
T7DF8 002:930.295 - 0.004ms returns 0x00000000
T7DF8 002:930.299 JLINK_ReadReg(R6)
T7DF8 002:930.303 - 0.004ms returns 0x00000000
T7DF8 002:930.307 JLINK_ReadReg(R7)
T7DF8 002:930.310 - 0.004ms returns 0x00000000
T7DF8 002:930.314 JLINK_ReadReg(R8)
T7DF8 002:930.317 - 0.004ms returns 0x00000000
T7DF8 002:930.321 JLINK_ReadReg(R9)
T7DF8 002:930.324 - 0.004ms returns 0x00000000
T7DF8 002:930.328 JLINK_ReadReg(R10)
T7DF8 002:930.331 - 0.004ms returns 0x00000000
T7DF8 002:930.335 JLINK_ReadReg(R11)
T7DF8 002:930.339 - 0.004ms returns 0x00000000
T7DF8 002:930.343 JLINK_ReadReg(R12)
T7DF8 002:930.346 - 0.004ms returns 0x40000001
T7DF8 002:930.350 JLINK_ReadReg(R13 (SP))
T7DF8 002:930.354 - 0.005ms returns 0x20000EA0
T7DF8 002:930.357 JLINK_ReadReg(R14)
T7DF8 002:930.361 - 0.004ms returns 0x080038C7
T7DF8 002:930.365 JLINK_ReadReg(R15 (PC))
T7DF8 002:930.368 - 0.005ms returns 0x08005010
T7DF8 002:930.372 JLINK_ReadReg(XPSR)
T7DF8 002:930.375 - 0.004ms returns 0x61000000
T7DF8 002:930.379 JLINK_ReadReg(MSP)
T7DF8 002:930.383 - 0.005ms returns 0x200047D0
T7DF8 002:930.387 JLINK_ReadReg(PSP)
T7DF8 002:930.390 - 0.004ms returns 0x20000EA0
T7DF8 002:930.394 JLINK_ReadReg(CFBP)
T7DF8 002:930.397 - 0.004ms returns 0x06000000
T7DF8 002:930.401 JLINK_ReadReg(FPSCR)
T7DF8 002:934.369 - 3.979ms returns 0x80000011
T7DF8 002:934.385 JLINK_ReadReg(FPS0)
T7DF8 002:934.390 - 0.007ms returns 0x43B28000
T7DF8 002:934.394 JLINK_ReadReg(FPS1)
T7DF8 002:934.398 - 0.005ms returns 0x3F800000
T7DF8 002:934.403 JLINK_ReadReg(FPS2)
T7DF8 002:934.406 - 0.005ms returns 0xC4922F74
T7DF8 002:934.411 JLINK_ReadReg(FPS3)
T7DF8 002:934.414 - 0.005ms returns 0xC59D4A83
T7DF8 002:934.418 JLINK_ReadReg(FPS4)
T7DF8 002:934.421 - 0.004ms returns 0xC4922F74
T7DF8 002:934.425 JLINK_ReadReg(FPS5)
T7DF8 002:934.429 - 0.004ms returns 0x4782B4B1
T7DF8 002:934.432 JLINK_ReadReg(FPS6)
T7DF8 002:934.436 - 0.004ms returns 0xC8927C00
T7DF8 002:934.440 JLINK_ReadReg(FPS7)
T7DF8 002:934.443 - 0.004ms returns 0x3E4CCCCD
T7DF8 002:934.447 JLINK_ReadReg(FPS8)
T7DF8 002:934.450 - 0.004ms returns 0x00000000
T7DF8 002:934.454 JLINK_ReadReg(FPS9)
T7DF8 002:934.458 - 0.005ms returns 0x00000000
T7DF8 002:934.462 JLINK_ReadReg(FPS10)
T7DF8 002:934.465 - 0.004ms returns 0x00000000
T7DF8 002:934.469 JLINK_ReadReg(FPS11)
T7DF8 002:934.477 - 0.010ms returns 0x00000000
T7DF8 002:934.481 JLINK_ReadReg(FPS12)
T7DF8 002:934.485 - 0.004ms returns 0x00000000
T7DF8 002:934.489 JLINK_ReadReg(FPS13)
T7DF8 002:934.492 - 0.004ms returns 0x00000000
T7DF8 002:934.496 JLINK_ReadReg(FPS14)
T7DF8 002:934.499 - 0.004ms returns 0x00000000
T7DF8 002:934.503 JLINK_ReadReg(FPS15)
T7DF8 002:934.506 - 0.004ms returns 0x00000000
T7DF8 002:934.510 JLINK_ReadReg(FPS16)
T7DF8 002:934.514 - 0.005ms returns 0x00000000
T7DF8 002:934.518 JLINK_ReadReg(FPS17)
T7DF8 002:934.521 - 0.004ms returns 0x00000000
T7DF8 002:934.525 JLINK_ReadReg(FPS18)
T7DF8 002:934.528 - 0.004ms returns 0x43B28000
T7DF8 002:934.532 JLINK_ReadReg(FPS19)
T7DF8 002:934.535 - 0.004ms returns 0x00000000
T7DF8 002:934.539 JLINK_ReadReg(FPS20)
T7DF8 002:934.542 - 0.004ms returns 0x00000000
T7DF8 002:934.546 JLINK_ReadReg(FPS21)
T7DF8 002:934.550 - 0.005ms returns 0x00000000
T7DF8 002:934.554 JLINK_ReadReg(FPS22)
T7DF8 002:934.557 - 0.004ms returns 0x00000000
T7DF8 002:934.561 JLINK_ReadReg(FPS23)
T7DF8 002:934.564 - 0.004ms returns 0x00000000
T7DF8 002:934.568 JLINK_ReadReg(FPS24)
T7DF8 002:934.571 - 0.004ms returns 0x00000000
T7DF8 002:934.575 JLINK_ReadReg(FPS25)
T7DF8 002:934.578 - 0.004ms returns 0x00000000
T7DF8 002:934.582 JLINK_ReadReg(FPS26)
T7DF8 002:934.586 - 0.004ms returns 0x00000000
T7DF8 002:934.590 JLINK_ReadReg(FPS27)
T7DF8 002:934.593 - 0.004ms returns 0x00000000
T7DF8 002:934.597 JLINK_ReadReg(FPS28)
T7DF8 002:934.600 - 0.004ms returns 0x00000000
T7DF8 002:934.604 JLINK_ReadReg(FPS29)
T7DF8 002:934.607 - 0.004ms returns 0x00000000
T7DF8 002:934.611 JLINK_ReadReg(FPS30)
T7DF8 002:934.615 - 0.004ms returns 0x00000000
T7DF8 002:934.618 JLINK_ReadReg(FPS31)
T7DF8 002:934.622 - 0.004ms returns 0x00000000
T7DF8 002:934.629 JLINK_ReadMemEx(0x20000244, 0x4 Bytes, Flags = 0x02000000)
T7DF8 002:934.638   CPU_ReadMem(64 bytes @ 0x20000240)
T7DF8 002:935.300    -- Updating C cache (64 bytes @ 0x20000240)
T7DF8 002:935.306    -- Read from C cache (4 bytes @ 0x20000244)
T7DF8 002:935.311   Data:  06 00 00 00
T7DF8 002:935.316 - 0.688ms returns 4 (0x4)
T7DF8 002:935.322 JLINK_ReadMemEx(0x20000234, 0x4 Bytes, Flags = 0x02000000)
T7DF8 002:935.327   CPU_ReadMem(64 bytes @ 0x20000200)
T7DF8 002:935.986    -- Updating C cache (64 bytes @ 0x20000200)
T7DF8 002:936.011    -- Read from C cache (4 bytes @ 0x20000234)
T7DF8 002:936.017   Data:  D0 0E 00 20
T7DF8 002:936.022 - 0.701ms returns 4 (0x4)
T293C 002:937.202 JLINK_ReadMemEx(0x200002B8, 0x2 Bytes, Flags = 0x02000000)
T293C 002:937.224   CPU_ReadMem(64 bytes @ 0x20000280)
T293C 002:937.911    -- Updating C cache (64 bytes @ 0x20000280)
T293C 002:937.926    -- Read from C cache (2 bytes @ 0x200002B8)
T293C 002:937.931   Data:  00 00
T293C 002:937.936 - 0.736ms returns 2 (0x2)
T293C 002:937.970 JLINK_ReadMemEx(0x2000001A, 0x2 Bytes, Flags = 0x02000000)
T293C 002:937.979   CPU_ReadMem(64 bytes @ 0x20000000)
T293C 002:938.698    -- Updating C cache (64 bytes @ 0x20000000)
T293C 002:938.727    -- Read from C cache (2 bytes @ 0x2000001A)
T293C 002:938.732   Data:  99 EB
T293C 002:938.737 - 0.769ms returns 2 (0x2)
T293C 002:943.688 JLINK_ReadMemEx(0x200002B8, 0x2 Bytes, Flags = 0x02000000)
T293C 002:943.709    -- Read from C cache (2 bytes @ 0x200002B8)
T293C 002:943.715   Data:  00 00
T293C 002:943.720 - 0.033ms returns 2 (0x2)
T293C 002:943.736 JLINK_ReadMemEx(0x20000044, 0x1 Bytes, Flags = 0x02000000)
T293C 002:943.744   CPU_ReadMem(64 bytes @ 0x20000040)
T293C 002:944.387    -- Updating C cache (64 bytes @ 0x20000040)
T293C 002:944.397    -- Read from C cache (1 bytes @ 0x20000044)
T293C 002:944.402   Data:  00
T293C 002:944.407 - 0.673ms returns 1 (0x1)
T293C 002:944.433 JLINK_ReadMemEx(0x20000044, 0x1 Bytes, Flags = 0x02000000)
T293C 002:944.439    -- Read from C cache (1 bytes @ 0x20000044)
T293C 002:944.443   Data:  00
T293C 002:944.448 - 0.017ms returns 1 (0x1)
T293C 002:944.891 JLINK_ReadMemEx(0x20000204, 0x4 Bytes, Flags = 0x02000000)
T293C 002:944.898    -- Read from C cache (4 bytes @ 0x20000204)
T293C 002:944.910   Data:  00 BA 01 43
T293C 002:944.914 - 0.024ms returns 4 (0x4)
T293C 002:945.100 JLINK_ReadMemEx(0x08005010, 0x3C Bytes, Flags = 0x02000000)
T293C 002:945.108   CPU_ReadMem(128 bytes @ 0x08005000)
T293C 002:946.141    -- Updating C cache (128 bytes @ 0x08005000)
T293C 002:946.155    -- Read from C cache (60 bytes @ 0x08005010)
T293C 002:946.160   Data:  29 48 00 21 01 60 41 60 02 46 40 F2 FF 21 27 48 ...
T293C 002:946.165 - 1.066ms returns 60 (0x3C)
T293C 002:946.170 JLINK_ReadMemEx(0x08005010, 0x2 Bytes, Flags = 0x02000000)
T293C 002:946.174    -- Read from C cache (2 bytes @ 0x08005010)
T293C 002:946.179   Data:  29 48
T293C 002:946.183 - 0.014ms returns 2 (0x2)
T293C 002:946.192 JLINK_ReadMemEx(0x08005012, 0x2 Bytes, Flags = 0x02000000)
T293C 002:946.195    -- Read from C cache (2 bytes @ 0x08005012)
T293C 002:946.200   Data:  00 21
T293C 002:946.204 - 0.013ms returns 2 (0x2)
T293C 002:946.215 JLINK_ReadMemEx(0x08005012, 0x2 Bytes, Flags = 0x02000000)
T293C 002:946.218    -- Read from C cache (2 bytes @ 0x08005012)
T293C 002:946.223   Data:  00 21
T293C 002:946.227 - 0.013ms returns 2 (0x2)
T293C 002:946.230 JLINK_ReadMemEx(0x08005014, 0x3C Bytes, Flags = 0x02000000)
T293C 002:946.234    -- Read from C cache (60 bytes @ 0x08005014)
T293C 002:946.239   Data:  01 60 41 60 02 46 40 F2 FF 21 27 48 FB F7 88 FA ...
T293C 002:946.243 - 0.013ms returns 60 (0x3C)
T293C 002:946.246 JLINK_ReadMemEx(0x08005014, 0x2 Bytes, Flags = 0x02000000)
T293C 002:946.250    -- Read from C cache (2 bytes @ 0x08005014)
T293C 002:946.254   Data:  01 60
T293C 002:946.258 - 0.013ms returns 2 (0x2)
T293C 002:946.264 JLINK_ReadMemEx(0x08005014, 0x3C Bytes, Flags = 0x02000000)
T293C 002:946.267    -- Read from C cache (60 bytes @ 0x08005014)
T293C 002:946.272   Data:  01 60 41 60 02 46 40 F2 FF 21 27 48 FB F7 88 FA ...
T293C 002:946.276 - 0.013ms returns 60 (0x3C)
T293C 002:946.279 JLINK_ReadMemEx(0x08005014, 0x2 Bytes, Flags = 0x02000000)
T293C 002:946.283    -- Read from C cache (2 bytes @ 0x08005014)
T293C 002:946.287   Data:  01 60
T293C 002:946.291 - 0.013ms returns 2 (0x2)
T293C 002:946.295 JLINK_ReadMemEx(0x08005016, 0x2 Bytes, Flags = 0x02000000)
T293C 002:946.298    -- Read from C cache (2 bytes @ 0x08005016)
T293C 002:946.303   Data:  41 60
T293C 002:946.307 - 0.013ms returns 2 (0x2)
T293C 002:946.312 JLINK_ReadMemEx(0x08005016, 0x2 Bytes, Flags = 0x02000000)
T293C 002:946.315    -- Read from C cache (2 bytes @ 0x08005016)
T293C 002:946.320   Data:  41 60
T293C 002:946.324 - 0.013ms returns 2 (0x2)
T293C 002:946.328 JLINK_ReadMemEx(0x08005018, 0x3C Bytes, Flags = 0x02000000)
T293C 002:946.331    -- Read from C cache (60 bytes @ 0x08005018)
T293C 002:946.335   Data:  02 46 40 F2 FF 21 27 48 FB F7 88 FA BD EC 04 8B ...
T293C 002:946.339 - 0.013ms returns 60 (0x3C)
T293C 002:946.343 JLINK_ReadMemEx(0x08005018, 0x2 Bytes, Flags = 0x02000000)
T293C 002:946.346    -- Read from C cache (2 bytes @ 0x08005018)
T293C 002:946.351   Data:  02 46
T293C 002:946.355 - 0.013ms returns 2 (0x2)
T293C 004:621.378 JLINK_ReadMemEx(0x20000000, 0x2 Bytes, Flags = 0x02000000)
T293C 004:621.410    -- Read from C cache (2 bytes @ 0x20000000)
T293C 004:621.416   Data:  EA 0B
T293C 004:621.422 - 0.045ms returns 2 (0x2)
T293C 004:621.430 JLINK_ReadMemEx(0x20000002, 0x2 Bytes, Flags = 0x02000000)
T293C 004:621.434    -- Read from C cache (2 bytes @ 0x20000002)
T293C 004:621.439   Data:  48 00
T293C 004:621.444 - 0.015ms returns 2 (0x2)
T293C 004:621.449 JLINK_ReadMemEx(0x20000004, 0x2 Bytes, Flags = 0x02000000)
T293C 004:621.453    -- Read from C cache (2 bytes @ 0x20000004)
T293C 004:621.458   Data:  65 01
T293C 004:621.462 - 0.015ms returns 2 (0x2)
T293C 004:621.475 JLINK_ReadMemEx(0x20000006, 0x2 Bytes, Flags = 0x02000000)
T293C 004:621.479    -- Read from C cache (2 bytes @ 0x20000006)
T293C 004:621.483   Data:  1A 00
T293C 004:621.488 - 0.014ms returns 2 (0x2)
T293C 004:621.494 JLINK_ReadMemEx(0x20000000, 0x2 Bytes, Flags = 0x02000000)
T293C 004:621.504    -- Read from C cache (2 bytes @ 0x20000000)
T293C 004:621.511   Data:  EA 0B
T293C 004:621.516 - 0.023ms returns 2 (0x2)
T293C 004:621.520 JLINK_ReadMemEx(0x20000002, 0x2 Bytes, Flags = 0x02000000)
T293C 004:621.524    -- Read from C cache (2 bytes @ 0x20000002)
T293C 004:621.529   Data:  48 00
T293C 004:621.533 - 0.014ms returns 2 (0x2)
T293C 004:621.538 JLINK_ReadMemEx(0x20000004, 0x2 Bytes, Flags = 0x02000000)
T293C 004:621.541    -- Read from C cache (2 bytes @ 0x20000004)
T293C 004:621.546   Data:  65 01
T293C 004:621.551 - 0.014ms returns 2 (0x2)
T293C 004:621.555 JLINK_ReadMemEx(0x20000006, 0x2 Bytes, Flags = 0x02000000)
T293C 004:621.559    -- Read from C cache (2 bytes @ 0x20000006)
T293C 004:621.563   Data:  1A 00
T293C 004:621.568 - 0.014ms returns 2 (0x2)
T293C 004:626.003 JLINK_ReadMemEx(0x20000000, 0x2 Bytes, Flags = 0x02000000)
T293C 004:626.031    -- Read from C cache (2 bytes @ 0x20000000)
T293C 004:626.036   Data:  EA 0B
T293C 004:626.042 - 0.040ms returns 2 (0x2)
T293C 004:626.049 JLINK_ReadMemEx(0x20000002, 0x2 Bytes, Flags = 0x02000000)
T293C 004:626.053    -- Read from C cache (2 bytes @ 0x20000002)
T293C 004:626.058   Data:  48 00
T293C 004:626.062 - 0.015ms returns 2 (0x2)
T293C 004:626.067 JLINK_ReadMemEx(0x20000004, 0x2 Bytes, Flags = 0x02000000)
T293C 004:626.071    -- Read from C cache (2 bytes @ 0x20000004)
T293C 004:626.076   Data:  65 01
T293C 004:626.081 - 0.015ms returns 2 (0x2)
T293C 004:626.086 JLINK_ReadMemEx(0x20000006, 0x2 Bytes, Flags = 0x02000000)
T293C 004:626.089    -- Read from C cache (2 bytes @ 0x20000006)
T293C 004:626.094   Data:  1A 00
T293C 004:626.098 - 0.014ms returns 2 (0x2)
T7DF8 010:090.894 JLINK_ReadMemEx(0x08005010, 0x2 Bytes, Flags = 0x02000000)
